EXPLAIN
TAG	EISPOT
TITLE	LABEL	Potentiostatic EIS	Test Identifier
DATE	LABEL	23/12/2024	Date
TIME	LABEL	18:09:16	Time
NOTES	NOTES	1	Notes...
	
PSTAT	PSTAT	IFC1000-07087	Potentiostat
VDC	POTEN	0.00000E+000	T	DC Voltage (V)
FREQINIT	QUANT	6.50000E+004	Initial Freq. (Hz)
FREQFINAL	QUANT	1.00000E-002	Final Freq. (Hz)
PTSPERDEC	QUANT	7.13000E+000	Points/decade
VAC	QUANT	1.00000E+001	AC Voltage (mV rms)
AREA	QUANT	1.00000E+000	Sample Area (cm^2)
SPEED	SELECTOR	1	Optimize for:
DRIFTCOR	SELECTOR	0	Drift Correction
THD	SELECTOR	0	THD
ZGUESS	QUANT	1.00000E+002	Estimated Z (ohms)
EOC	QUANT	0.2180956	Open Circuit (V)
SEQUENCER	TOGGLE	TRUE	Run as Sequence
PSTATMODEL	IQUANT	48	Pstat Model
PSTATSECTION	LABEL	IFC1000-07087	Pstat Section
PSTATSERIALNO	LABEL	07087	Pstat Serial Number
CTRLMODE	IQUANT	1	Control Mode
ELECTROMETER	IQUANT	0	RE=0 or CS=1
IESTAB	IQUANT	0	I/E Stability
CASPEED	IQUANT	3	Control Amp Speed
CONVENTION	IQUANT	1	Current Convention
ICHRANGE	IQUANT	2	Ich Range
ICHRANGEMODE	TOGGLE	F	Ich Auto Range
ICHOFFSETENABLE	TOGGLE	T	Ich Offset Enable
ICHOFFSET	QUANT	0	Ich Offset (V)
ICHFILTER	IQUANT	4	Ich Filter
VCHRANGE	IQUANT	2	Vch Range
VCHRANGEMODE	TOGGLE	F	Vch Auto Range
VCHOFFSETENABLE	TOGGLE	T	Vch Offset Enable
VCHOFFSET	QUANT	0	Vch Offset (V)
VCHFILTER	IQUANT	4	Vch Filter
IERANGELOWERLIMIT	IQUANT	4	I/E Range Lower Limit
IERANGEMODE	TOGGLE	F	I/E AutoRange
IERANGE	IQUANT	11	I/E Range
ACHSELECT	IQUANT	0	Ach Select
ACHRANGE	IQUANT	2	Ach Range
ACHOFFSETENABLE	TOGGLE	F	Ach Offset Enable
ACHOFFSET	QUANT	0	Ach Offset (V)
ACHFILTER	IQUANT	1	Ach Filter
SENSECABLEID	IQUANT	14	Sense Cable ID
PWRCABLEID	IQUANT	14	Power Cable ID
DCCALDATE	LABEL	11/14/2024	DC Calibration Date
ACCALDATE	LABEL	7/17/2019	AC Calibration Date
FRAMEWORKVERSION	LABEL	7.10.3	Framework Version
INSTRUMENTVERSION	LABEL	4.91	Instrument Version
COMMVERSION	LABEL	3.10	Communications Version
CPUPLDVERSION	LABEL	1.10	CPU PLD Version
CTRLPLDVERSION	LABEL	0.00	CTRL PLD Version
PSTATPLDVERSION	LABEL	0.00	PSTAT PLD Version
ZCURVE	TABLE
	Pt	Time	Freq	Zreal	Zimag	Zsig	Zmod	Zphz	Idc	Vdc	IERange	Imod	Vmod	Temp
	#	s	Hz	ohm	ohm	V	ohm	°	A	V	#	A	V	°C
	0	4	65097.66	10.52259	-1.088785	1	10.57877	-5.907442	1.014647E-006	0.2181234	10	0.0009454	0.0099848	0
	1	6	47167.97	10.67847	-1.233968	1	10.74953	-6.591666	9.160981E-007	0.2181224	10	0.0010333	0.0110973	0
	2	8	34160.16	10.89626	-1.425224	1	10.98907	-7.451948	8.955717E-007	0.2181215	10	0.0009619	0.0105651	0
	3	10	24785.16	11.19104	-1.638979	1	11.31042	-8.331999	8.471525E-007	0.2181223	10	0.0009105	0.0102948	0
	4	12	17871.09	11.57141	-1.852673	1	11.71879	-9.096298	8.675988E-007	0.2181228	10	0.0008617	0.0100966	0
	5	14	12949.22	12.00962	-2.031277	1	12.18019	-9.60001	8.276766E-007	0.2181239	10	0.0008236	0.0100311	0
	6	15	9317.13	12.49648	-2.172529	1	12.68392	-9.86238	1.977411E-006	0.2181334	10	0.000788	0.0099941	0
	7	17	6770.833	12.98251	-2.270133	1	13.1795	-9.91851	1.931023E-006	0.2181334	10	0.0007573	0.0099811	0
	8	19	4918.981	13.46481	-2.346731	1	13.66778	-9.88656	1.615179E-006	0.2181246	10	0.0007088	0.009759	0
	9	21	3574.219	13.9381	-2.420964	1	14.14679	-9.85362	1.653227E-006	0.2181234	10	0.0007165	0.0101713	0
	10	22	2572.408	14.41538	-2.512015	1	14.63261	-9.88507	1.698345E-006	0.2181249	10	0.0006838	0.0100234	0
	11	24	1863.705	14.8841	-2.634848	1	15.11551	-10.03875	2.068086E-006	0.2181226	10	0.0006608	0.0099967	0
	12	26	1346.983	15.36401	-2.802673	1	15.61755	-10.33811	2.024494E-006	0.2181213	10	0.0006416	0.0100244	0
	13	28	971.799	15.86556	-3.02758	1	16.15185	-10.80371	2.065734E-006	0.218124	10	0.0006182	0.0099879	0
	14	29	708.5756	16.38021	-3.324571	1	16.71418	-11.47306	-1.823082E-009	0.2181288	9	0.0005985	0.010005	0
	15	31	514.4817	16.94292	-3.68729	1	17.33951	-12.27784	1.233252E-008	0.2181299	9	0.0005763	0.0099932	0
	16	33	368.6798	17.59214	-4.166971	1	18.07891	-13.3258	4.763024E-009	0.2181264	9	0.0005467	0.0098615	0
	17	34	269.3965	18.27868	-4.723159	1	18.87905	-14.48816	6.007394E-008	0.2181263	9	0.000535	0.0100907	0
	18	36	193.6983	19.09256	-5.430343	1	19.8498	-15.87692	6.789378E-009	0.2181268	9	0.0005039	0.0099974	0
	19	37	140.625	19.97758	-6.253923	1	20.93359	-17.38258	6.268328E-008	0.2181277	9	0.000475	0.0099405	0
	20	39	101.9022	20.95322	-7.257057	1	22.17436	-19.10331	4.233607E-008	0.2181271	9	0.0004422	0.009805	0
	21	41	73.8189	22.07189	-8.524471	1	23.66083	-21.11726	-6.982764E-006	0.218124	9	0.0004301	0.010177	0
	22	42	54.50581	23.15479	-9.9826	1	25.215	-23.32206	-5.243382E-006	0.2181243	9	0.0003967	0.0100022	0
	23	44	37.5	24.53149	-12.27241	1	27.43003	-26.57751	-3.21749E-006	0.2181252	9	0.0003645	0.0099994	0
	24	46	28.58232	25.52879	-14.44227	1	29.33084	-29.49791	-2.647036E-006	0.2181247	9	0.0003409	0.01	0
	25	47	20.03205	26.67452	-18.22224	1	32.30449	-34.33826	-1.160966E-006	0.2181248	9	0.0003095	0.0099995	0
	26	49	14.64844	27.53265	-22.94235	1	35.8385	-39.80369	-4.580346E-007	0.2181246	9	0.000279	0.0100002	0
	27	51	10.53371	28.31923	-29.98085	1	41.24112	-46.63256	-1.66632E-007	0.2181234	9	0.0002425	0.0100003	0
	28	53	7.697044	29.03563	-39.42159	1	48.96048	-53.62682	-3.063383E-008	0.218124	9	0.0002043	0.0100008	0
	29	55	5.580357	29.82153	-52.87048	1	60.701	-60.57488	-2.028594E-008	0.2181253	9	0.0001647	0.0099996	0
	30	57	4.033993	30.77499	-71.68073	1	78.00786	-66.7645	3.33348E-008	0.218124	9	0.0001282	0.0100002	0
	31	60	2.929688	31.97224	-97.2315	1	102.3532	-71.79779	2.470733E-008	0.218125	9	0.0000977	0.0100003	0
	32	63	2.117209	33.60453	-132.9165	1	137.0988	-75.81156	3.172087E-008	0.2181272	9	7.181245E-005	0.0098515	0
	33	67	1.522905	35.81189	-182.7258	1	186.2021	-78.91132	3.768574E-008	0.218126	9	5.425906E-005	0.0101065	0
	34	72	1.112892	38.67046	-247.6245	1	250.6258	-81.12405	2.247512E-008	0.2181308	8	4.001081E-005	0.0100295	0
	35	78	0.8026541	42.76258	-339.9648	1	342.6437	-82.83069	2.574438E-008	0.2181305	8	2.920974E-005	0.0100095	0
	36	85	0.5787037	48.38768	-467.0958	1	469.5954	-84.08568	2.849836E-008	0.2181308	8	2.130235E-005	0.010004	0
	37	94	0.4215378	55.95897	-635.353	1	637.8126	-84.96664	3.101948E-008	0.2181313	8	1.568117E-005	0.0100019	0
	38	105	0.3051758	66.59348	-869.3249	1	871.8718	-85.61948	3.276227E-008	0.2181323	8	1.146983E-005	0.0100004	0
	39	120	0.2211085	81.40669	-1188.419	1	1191.204	-86.08136	3.467173E-008	0.2181316	8	8.39496E-006	0.0100002	0
	40	139	0.159656	102.517	-1629.517	1	1632.739	-86.40012	3.725484E-008	0.2181307	8	6.125069E-006	0.0100007	0
	41	165	0.1155695	132.0578	-2228.176	1	2232.086	-86.60821	2.074846E-008	0.2181323	7	4.479997E-006	0.0099998	0
	42	197	0.0837054	173.3739	-3043.524	1	3048.458	-86.73968	2.086724E-008	0.2181319	7	3.28033E-006	0.01	0
	43	235	0.0605933	233.1386	-4157.254	1	4163.786	-86.79021	2.244906E-008	0.2181315	7	2.401734E-006	0.0100003	0
	44	286	0.0438576	318.0015	-5674.984	1	5683.887	-86.79275	2.229898E-008	0.2181316	7	1.759393E-006	0.0100002	0
	45	356	0.0317409	440.6563	-7741.691	1	7754.222	-86.74225	2.198487E-008	0.2181321	7	1.289621E-006	0.01	0
	46	452	0.0229779	618.1786	-10546.53	1	10564.63	-86.64548	2.1578E-008	0.2181313	7	9.465645E-007	0.0100001	0
	47	584	0.0166365	876.9372	-14346.86	1	14373.64	-86.5022	2.098531E-008	0.218131	7	6.95722E-007	0.0100001	0
	48	767	0.0120464	1258.396	-19493.11	1	19533.68	-86.30634	2.101348E-008	0.2181314	7	5.119238E-007	0.0099998	0
	49	1017	0.0087206	1813.792	-26450.8	1	26512.92	-86.07724	1.636806E-008	0.2181315	6	3.771797E-007	0.0100001	0
